
**** 05/22/23 01:53:33 **** PSpice 22.1.0 (6 October 2022) **** ID# 0 ********

 ** Profile: "SCHEMATIC1-time_sim"  [ C:\Users\Catalin24\Desktop\Pop_Catalin_Proiect_CAD\Senzor_Temperatura\pop_catalin_senzor_temper


 ****     CIRCUIT DESCRIPTION


******************************************************************************




** Creating circuit file "time_sim.cir" 
** WARNING: THIS AUTOMATICALLY GENERATED FILE MAY BE OVERWRITTEN BY SUBSEQUENT SIMULATIONS

*Libraries: 
* Profile Libraries :
* Local Libraries :
.LIB "../../../led_portocaliu.lib" 
* From [PSPICE NETLIST] section of D:\OrCAD\cdssetup\OrCAD_PSpice\22.1.0\PSpice.ini file:
.lib "nom.lib" 

*Analysis directives: 
.TRAN  0 5s 0 5m 
.TEMP -70 -50 -30 -10 20 50 100 150
.OPTIONS ADVCONV
.PROBE64 V(alias(*)) I(alias(*)) W(alias(*)) D(alias(*)) NOISE(alias(*)) 
.INC "..\SCHEMATIC1.net" 



**** INCLUDING SCHEMATIC1.net ****
* source POP_CATALIN_SENZOR_TEMPERATURA
X_U1         N00093 N00093 0 2N7000
X_U2         N01344 N00093 0 2N7000
R_Rref         N00093 VCC R_Rref 39k TC=0,0 
.model        R_Rref RES R=1 DEV=5% TC1=0 TC2=0
R_RS         N01344 VCC  {r} TC=0,0 
X_U3         N01002 N01032 VCC 0 N01097 LM741
R_R3         N01606 N01002 R_R3 1.27k TC=0,0 
.model        R_R3 RES R=1 DEV=1% TC1=0 TC2=0
R_R4         N01002 0 R_R4 4.99k TC=0,0 
.model        R_R4 RES R=1 DEV=1% TC1=0 TC2=0
R_R1         VREF N01032 R_R1 1.27k TC=0,0 
.model        R_R1 RES R=1 DEV=1% TC1=0 TC2=0
R_R2         N01032 N01097 R_R2 4.99k TC=0,0 
.model        R_R2 RES R=1 DEV=1% TC1=0 TC2=0
V_V1         VCC 0 16V
X_U4         N01344 N01606 VCC 0 N01606 LM741
R_R7         N02189 OUT R_R7 24k TC=0,0 
.model        R_R7 RES R=1 DEV=5% TC1=0 TC2=0
R_R6         VCMD N02189 R_R6 13k TC=0,0 
.model        R_R6 RES R=1 DEV=5% TC1=0 TC2=0
R_R8         0 N022410 R_R8 1k TC=0,0 
.model        R_R8 RES R=1 DEV=1% TC1=0 TC2=0
R_R9         N02466 VCC R_R9 10k TC=0,0 
.model        R_R9 RES R=1 DEV=5% TC1=0 TC2=0
R_R10         N03573 VCC R_R10 20k TC=0,0 
.model        R_R10 RES R=1 DEV=5% TC1=0 TC2=0
R_R11         0 N03573 R_R11 10k TC=0,0 
.model        R_R11 RES R=1 DEV=5% TC1=0 TC2=0
X_U6         N03573 VREF VCC 0 VREF LM741
R_R12         N04415 VCC R_R12 22k TC=0,0 
.model        R_R12 RES R=1 DEV=5% TC1=0 TC2=0
X_U7         N04415 VCMD VCC 0 VCMD LM741
R_R13         0 N04415 R_R13 10k TC=0,0 
.model        R_R13 RES R=1 DEV=5% TC1=0 TC2=0
R_R5         N01097 N07237 R_R5 13k TC=0,0 
.model        R_R5 RES R=1 DEV=5% TC1=0 TC2=0
X_U9         N02466 OUT 0 2N7000
X_U10         N02189 N07237 VCC 0 OUT LM741
D_D1         OUT N022410 led_portocaliu 
.PARAM  r=29k

**** RESUMING time_sim.cir ****
.END

**** 05/22/23 01:53:33 **** PSpice 22.1.0 (6 October 2022) **** ID# 0 ********

 ** Profile: "SCHEMATIC1-time_sim"  [ C:\Users\Catalin24\Desktop\Pop_Catalin_Proiect_CAD\Senzor_Temperatura\pop_catalin_senzor_temper


 ****     Diode MODEL PARAMETERS


******************************************************************************




               led_portocaliu  X_U1.DBD        X_U2.DBD        X_U9.DBD        
          IS   10.159000E-21   48.116150E-15   48.116150E-15   48.116150E-15 
           N    1.0904                                                       
          BV                   75              75              75            
         IBV                   10.000000E-06   10.000000E-06   10.000000E-06 
          RS    8.6867          1.000000E-06    1.000000E-06    1.000000E-06 
          TT                   30.000000E-09   30.000000E-09   30.000000E-09 
         CJO                   16.940000E-12   16.940000E-12   16.940000E-12 
          VJ                     .5              .5              .5          
           M                     .2              .2              .2          


               X_U3.x_lm741.dx X_U3.x_lm741.dy X_U4.x_lm741.dx X_U4.x_lm741.dy 
          IS  800.000000E-18  800.000000E-18  800.000000E-18  800.000000E-18 
          RS    1               1.000000E-03    1               1.000000E-03 
         CJO                   10.000000E-12                   10.000000E-12 


               X_U6.x_lm741.dx X_U6.x_lm741.dy X_U7.x_lm741.dx X_U7.x_lm741.dy 
          IS  800.000000E-18  800.000000E-18  800.000000E-18  800.000000E-18 
          RS    1               1.000000E-03    1               1.000000E-03 
         CJO                   10.000000E-12                   10.000000E-12 


               X_U10.x_lm741.dx 
          IS  800.000000E-18 
          RS    1            


               X_U10.x_lm741.dy 
          IS  800.000000E-18 
          RS    1.000000E-03 
         CJO   10.000000E-12 


**** 05/22/23 01:53:33 **** PSpice 22.1.0 (6 October 2022) **** ID# 0 ********

 ** Profile: "SCHEMATIC1-time_sim"  [ C:\Users\Catalin24\Desktop\Pop_Catalin_Proiect_CAD\Senzor_Temperatura\pop_catalin_senzor_temper


 ****     BJT MODEL PARAMETERS


******************************************************************************




               X_U3.x_lm741.qx X_U4.x_lm741.qx X_U6.x_lm741.qx X_U7.x_lm741.qx 
               NPN             NPN             NPN             NPN             
       LEVEL    1               1               1               1            
          IS  800.000000E-18  800.000000E-18  800.000000E-18  800.000000E-18 
          BF   93.75           93.75           93.75           93.75         
          NF    1               1               1               1            
          BR    1               1               1               1            
          NR    1               1               1               1            
         ISS    0               0               0               0            
          RE    0               0               0               0            
          RC    0               0               0               0            
         CJE    0               0               0               0            
         VJE     .75             .75             .75             .75         
         CJC    0               0               0               0            
         VJC     .75             .75             .75             .75         
         MJC     .33             .33             .33             .33         
        XCJC    1               1               1               1            
         CJS    0               0               0               0            
         VJS     .75             .75             .75             .75         
          KF    0               0               0               0            
          AF    1               1               1               1            
          CN    2.42            2.42            2.42            2.42         
           D     .87             .87             .87             .87         


               X_U10.x_lm741.qx 
               NPN             
       LEVEL    1            
          IS  800.000000E-18 
          BF   93.75         
          NF    1            
          BR    1            
          NR    1            
         ISS    0            
          RE    0            
          RC    0            
         CJE    0            
         VJE     .75         
         CJC    0            
         VJC     .75         
         MJC     .33         
        XCJC    1            
         CJS    0            
         VJS     .75         
          KF    0            
          AF    1            
          CN    2.42         
           D     .87         


**** 05/22/23 01:53:33 **** PSpice 22.1.0 (6 October 2022) **** ID# 0 ********

 ** Profile: "SCHEMATIC1-time_sim"  [ C:\Users\Catalin24\Desktop\Pop_Catalin_Proiect_CAD\Senzor_Temperatura\pop_catalin_senzor_temper


 ****     MOSFET MODEL PARAMETERS


******************************************************************************




               X_U1.MINT       X_U2.MINT       X_U9.MINT       
               NMOS            NMOS            NMOS            
       LEVEL    3               3               3            
           L  100.000000E-06  100.000000E-06  100.000000E-06 
           W  100.000000E-06  100.000000E-06  100.000000E-06 
         VTO    2.148821        2.148821        2.148821     
          KP     .5106           .5106           .5106       
       GAMMA    0               0               0            
         PHI     .6              .6              .6          
      LAMBDA    0               0               0            
          IS    1.000000E-24    1.000000E-24    1.000000E-24 
          JS    0               0               0            
          PB     .8              .8              .8          
        PBSW     .8              .8              .8          
          CJ    0               0               0            
        CJSW    0               0               0            
        CGSO    0               0               0            
        CGDO    0               0               0            
        CGBO    0               0               0            
         TOX  100.000000E-09  100.000000E-09  100.000000E-09 
          XJ    0               0               0            
       UCRIT   10.000000E+03   10.000000E+03   10.000000E+03 
        VMAX    1.000000E+03    1.000000E+03    1.000000E+03 
         ETA    0               0               0            
      DIOMOD    1               1               1            
         VFB    0               0               0            
        LETA    0               0               0            
        WETA    0               0               0            
          U0  600             600             600            
        TEMP    0               0               0            
         VDD    5               5               5            
       XPART    0               0               0            


**** 05/22/23 01:53:33 **** PSpice 22.1.0 (6 October 2022) **** ID# 0 ********

 ** Profile: "SCHEMATIC1-time_sim"  [ C:\Users\Catalin24\Desktop\Pop_Catalin_Proiect_CAD\Senzor_Temperatura\pop_catalin_senzor_temper


 ****     Resistor MODEL PARAMETERS


******************************************************************************




               R_Rref          R_R3            R_R4            R_R1            
           R    1               1               1               1            


               R_R2            R_R7            R_R6            R_R8            
           R    1               1               1               1            


               R_R9            R_R10           R_R11           R_R12           
           R    1               1               1               1            


               R_R13           R_R5            
           R    1               1            


**** 05/22/23 01:53:33 **** PSpice 22.1.0 (6 October 2022) **** ID# 0 ********

 ** Profile: "SCHEMATIC1-time_sim"  [ C:\Users\Catalin24\Desktop\Pop_Catalin_Proiect_CAD\Senzor_Temperatura\pop_catalin_senzor_temper


 ****     TEMPERATURE-ADJUSTED VALUES      TEMPERATURE =  -70.000 DEG C


******************************************************************************




 **** DIODE MODEL PARAMETERS

               led_portocaliu    X_U1.DBD       X_U2.DBD    

         IS        2.392E-29      1.881E-23      1.881E-23  
         VJ        1.081E+00      7.421E-01      7.421E-01  
        CJO        0.000E+00      1.517E-11      1.517E-11  
         RS        8.687E+00      1.000E-06      1.000E-06  
        IKF        0.000E+00      0.000E+00      0.000E+00  
         BV                       7.500E+01      7.500E+01  

                  X_U9.DBD    X_U3.x_lm741.dyX_U3.x_lm741.dx

         IS        1.881E-23      3.127E-25      3.127E-25  
         VJ        7.421E-01      1.081E+00      1.081E+00  
        CJO        1.517E-11      9.403E-12      0.000E+00  
         RS        1.000E-06      1.000E-03      1.000E+00  
        IKF        0.000E+00      0.000E+00      0.000E+00  
         BV        7.500E+01  

               X_U4.x_lm741.dyX_U4.x_lm741.dxX_U6.x_lm741.dy

         IS        3.127E-25      3.127E-25      3.127E-25  
         VJ        1.081E+00      1.081E+00      1.081E+00  
        CJO        9.403E-12      0.000E+00      9.403E-12  
         RS        1.000E-03      1.000E+00      1.000E-03  
        IKF        0.000E+00      0.000E+00      0.000E+00  
         BV                   

               X_U6.x_lm741.dxX_U7.x_lm741.dyX_U7.x_lm741.dx

         IS        3.127E-25      3.127E-25      3.127E-25  
         VJ        1.081E+00      1.081E+00      1.081E+00  
        CJO        0.000E+00      9.403E-12      0.000E+00  
         RS        1.000E+00      1.000E-03      1.000E+00  
        IKF        0.000E+00      0.000E+00      0.000E+00  
         BV                   

               X_U10.x_lm741.dy
                              X_U10.x_lm741.dx

         IS        3.127E-25      3.127E-25  
         VJ        1.081E+00      1.081E+00  
        CJO        9.403E-12      0.000E+00  
         RS        1.000E-03      1.000E+00  
        IKF        0.000E+00      0.000E+00  
         BV                   


 **** MOSFET MODEL PARAMETERS

                  X_U1.MINT      X_U2.MINT      X_U9.MINT   

        VTO        2.242E+00      2.242E+00      2.242E+00  
        PHI        8.098E-01      8.098E-01      8.098E-01  
         PB        9.451E-01      9.451E-01      9.451E-01  
     IS(JS)        0.000E+00      0.000E+00      0.000E+00  
         KP        9.170E-01      9.170E-01      9.170E-01  
         UO        1.078E+03      1.078E+03      1.078E+03  


 **** BJT MODEL PARAMETERS

               X_U3.x_lm741.qxX_U4.x_lm741.qxX_U6.x_lm741.qx

         BF        9.375E+01      9.375E+01      9.375E+01  
        ISE        0.000E+00      0.000E+00      0.000E+00  
        VJE        9.113E-01      9.113E-01      9.113E-01  
        CJE        0.000E+00      0.000E+00      0.000E+00  
         RE        0.000E+00      0.000E+00      0.000E+00  
         RB        0.000E+00      0.000E+00      0.000E+00  
         BR        1.000E+00      1.000E+00      1.000E+00  
        ISC        0.000E+00      0.000E+00      0.000E+00  
        VJC        9.113E-01      9.113E-01      9.113E-01  
        CJC        0.000E+00      0.000E+00      0.000E+00  
         RC        0.000E+00      0.000E+00      0.000E+00  
        RBM        0.000E+00      0.000E+00      0.000E+00  
         IS        3.127E-25      3.127E-25      3.127E-25  
        ISS        0.000E+00      0.000E+00      0.000E+00  
        VJS        9.113E-01      9.113E-01      9.113E-01  
        CJS        0.000E+00      0.000E+00      0.000E+00  
      GAMMA        1.000E-11      1.000E-11      1.000E-11  
        RCO        0.000E+00      0.000E+00      0.000E+00  
         VO        1.000E+01      1.000E+01      1.000E+01  

               X_U7.x_lm741.qxX_U10.x_lm741.qx

         BF        9.375E+01      9.375E+01  
        ISE        0.000E+00      0.000E+00  
        VJE        9.113E-01      9.113E-01  
        CJE        0.000E+00      0.000E+00  
         RE        0.000E+00      0.000E+00  
         RB        0.000E+00      0.000E+00  
         BR        1.000E+00      1.000E+00  
        ISC        0.000E+00      0.000E+00  
        VJC        9.113E-01      9.113E-01  
        CJC        0.000E+00      0.000E+00  
         RC        0.000E+00      0.000E+00  
        RBM        0.000E+00      0.000E+00  
         IS        3.127E-25      3.127E-25  
        ISS        0.000E+00      0.000E+00  
        VJS        9.113E-01      9.113E-01  
        CJS        0.000E+00      0.000E+00  
      GAMMA        1.000E-11      1.000E-11  
        RCO        0.000E+00      0.000E+00  
         VO        1.000E+01      1.000E+01  


 **** RESISTORS

               R_Rref <R_Rref>  R_R3 <R_R3>    R_R4 <R_R4>  

          R        3.900E+04      1.270E+03      4.990E+03  


                 R_R1 <R_R1>    R_R2 <R_R2>    R_R7 <R_R7>  

          R        1.270E+03      4.990E+03      2.400E+04  


                 R_R6 <R_R6>    R_R8 <R_R8>    R_R9 <R_R9>  

          R        1.300E+04      1.000E+03      1.000E+04  


                R_R10 <R_R10>  R_R11 <R_R11>  R_R12 <R_R12> 

          R        2.000E+04      1.000E+04      2.200E+04  


                R_R13 <R_R13>   R_R5 <R_R5>   X_U1.RDS < >  

          R        1.000E+04      1.300E+04      2.808E+10  


                 X_U1.RD < >   X_U1.RBD < >   X_U2.RDS < >  

          R        9.123E-01      1.949E-01      2.808E+10  


                 X_U2.RD < >   X_U2.RBD < >   X_U9.RDS < >  

          R        9.123E-01      1.949E-01      2.808E+10  


                 X_U9.RD < >   X_U9.RBD < >                 

          R        9.123E-01      1.949E-01  



**** 05/22/23 01:53:33 **** PSpice 22.1.0 (6 October 2022) **** ID# 0 ********

 ** Profile: "SCHEMATIC1-time_sim"  [ C:\Users\Catalin24\Desktop\Pop_Catalin_Proiect_CAD\Senzor_Temperatura\pop_catalin_senzor_temper


 ****     INITIAL TRANSIENT SOLUTION       TEMPERATURE =  -70.000 DEG C


******************************************************************************



 NODE   VOLTAGE     NODE   VOLTAGE     NODE   VOLTAGE     NODE   VOLTAGE


(  OUT)   15.9240  (  VCC)   16.0000  ( VCMD)    4.9996  ( VREF)    5.3329      

(N00093)    2.2704 (N01002)    4.6138 (N01032)    4.6139 (N01097)    1.7893     

(N01344)    5.7880 (N01606)    5.7881 (N02189)    8.8365 (N02466)     .0016     

(N03573)    5.3328 (N04415)    4.9995 (N07237)    1.7893 (X_U1.1)    2.2704     

(X_U1.2)    2.2704 (X_U1.3)    2.2701 (X_U1.4)    2.2704 (X_U1.5)    2.2704     

(X_U1.6) 2.464E-06 (X_U1.7) 2.429E-06 (X_U1.8)    0.0000 (X_U1.9)    2.2704     

(X_U2.1)    2.2704 (X_U2.2)    2.2704 (X_U2.3)    5.7877 (X_U2.4)    5.7880     

(X_U2.5)    5.7880 (X_U2.6) 2.464E-06 (X_U2.7) 2.429E-06 (X_U2.8)    0.0000     

(X_U2.9)    5.7880 (X_U9.1)   15.9240 (X_U9.2)   15.9240 (X_U9.3) 138.7E-06     

(X_U9.4)     .0016 (X_U9.5)     .0016 (X_U9.6) 11.20E-06 (X_U9.7) 11.04E-06     

(X_U9.8)    0.0000 (X_U9.9)     .0016 (N022410)   14.6200                       

(X_U1.11)    0.0000                   (X_U1.12)-321.3E-06                       

(X_U1.13)   22.0000                   (X_U2.11)    0.0000                       

(X_U2.12)    3.5173                   (X_U2.13)   11.2800                       

(X_U9.11)    0.0000                   (X_U9.12)  -15.9240                       

(X_U9.13)   22.0000                   (X_U3.x_lm741.6) 593.5E-06                

(X_U3.x_lm741.7)    1.7610            (X_U3.x_lm741.8)    1.7610                

(X_U3.x_lm741.9)    0.0000            (X_U4.x_lm741.6) 195.2E-06                

(X_U4.x_lm741.7)    5.8344            (X_U4.x_lm741.8)    5.8344                

(X_U4.x_lm741.9)    0.0000            (X_U6.x_lm741.6) 243.3E-06                

(X_U6.x_lm741.7)    5.3612            (X_U6.x_lm741.8)    5.3612                

(X_U6.x_lm741.9)    0.0000            (X_U7.x_lm741.6) 287.0E-06                

(X_U7.x_lm741.7)    4.9848            (X_U7.x_lm741.8)    4.9848                

(X_U7.x_lm741.9)    0.0000            (X_U10.x_lm741.6)   -1.5001               

(X_U10.x_lm741.7)   17.9630           (X_U10.x_lm741.8)   17.9630               

(X_U10.x_lm741.9)    0.0000           (X_U3.x_lm741.10)    3.8194               

(X_U3.x_lm741.11)   15.9610           (X_U3.x_lm741.12)   15.9610               

(X_U3.x_lm741.13)    3.8331           (X_U3.x_lm741.14)    3.8330               

